
**** 12/21/21 16:59:00 ****** PSpice 17.2.0 (March 2016) ****** ID# 0 ********

 ** Profile: "15.4(3)-2"  [ D:\Software\Cadence_PSpice\Project\12.21-1\12-21-1-pspicefiles\15.4(3)\2.sim ] 


 ****     CIRCUIT DESCRIPTION


******************************************************************************




** Creating circuit file "2.cir" 
** WARNING: THIS AUTOMATICALLY GENERATED FILE MAY BE OVERWRITTEN BY SUBSEQUENT SIMULATIONS

*Libraries: 
* Profile Libraries :
* Local Libraries :
* From [PSPICE NETLIST] section of D:\Software\Cadence_PSpice\Cadence\SPB_Data\cdssetup\OrCAD_PSpice\17.2.0\PSpice.ini file:
.lib "nom.lib" 

*Analysis directives: 
.TRAN  0 10m 0 0.01m 
.FOUR 20k 9 V([VOUT]) 
.OPTIONS ADVCONV
.PROBE64 V(alias(*)) I(alias(*)) W(alias(*)) D(alias(*)) NOISE(alias(*)) 
.INC "..\15.4(3).net" 



**** INCLUDING 15.4(3).net ****
* source 12-21-1
R_R4         N00292 VOUT  20k TC=0,0 
R_R2         N00334 VOUT  800 TC=0,0 
R_R1         N00296 N00288  800 TC=0,0 
C_C2         N00334 N00288  10n  TC=0,0 
R_R3         N00296 N00292  10k TC=0,0 
C_C3         0 N00296  10n  TC=0,0 
C_C1         N00296 N00288  10n  TC=0,0 
V_V1         VCC 0 5Vdc
D_D2         N00369 N00292 D1N4148 
D_D1         N00292 N00369 D1N4148 
R_R7         0 N00296  35k TC=0,0 
R_R6         N00296 VCC  65k TC=0,0 
R_R5         N00369 VOUT  24k TC=0,0 
X_U1         N00288 N00292 VCC GND VOUT LM324/5_1/TI

**** RESUMING 2.cir ****
.END

**** 12/21/21 16:59:00 ****** PSpice 17.2.0 (March 2016) ****** ID# 0 ********

 ** Profile: "15.4(3)-2"  [ D:\Software\Cadence_PSpice\Project\12.21-1\12-21-1-pspicefiles\15.4(3)\2.sim ] 


 ****     Diode MODEL PARAMETERS


******************************************************************************




               D1N4148         X_U1.DX         
          IS    2.682000E-09  800.000000E-18 
           N    1.836                        
         ISR    1.565000E-09                 
         IKF     .04417                      
          BV  100                            
         IBV  100.000000E-06                 
          RS     .5664                       
          TT   11.540000E-09                 
         CJO    4.000000E-12                 
          VJ     .5                          
           M     .3333                       


**** 12/21/21 16:59:00 ****** PSpice 17.2.0 (March 2016) ****** ID# 0 ********

 ** Profile: "15.4(3)-2"  [ D:\Software\Cadence_PSpice\Project\12.21-1\12-21-1-pspicefiles\15.4(3)\2.sim ] 


 ****     BJT MODEL PARAMETERS


******************************************************************************




               X_U1.QX         
               PNP             
       LEVEL    1            
          IS  800.000000E-18 
          BF  250            
          NF    1            
          BR    1            
          NR    1            
         ISS    0            
          RE    0            
          RC    0            
         CJE    0            
         VJE     .75         
         CJC    0            
         VJC     .75         
         MJC     .33         
        XCJC    1            
         CJS    0            
         VJS     .75         
          KF    0            
          AF    1            
          CN    2.2          
           D     .52         


**** 12/21/21 16:59:00 ****** PSpice 17.2.0 (March 2016) ****** ID# 0 ********

 ** Profile: "15.4(3)-2"  [ D:\Software\Cadence_PSpice\Project\12.21-1\12-21-1-pspicefiles\15.4(3)\2.sim ] 


 ****     INITIAL TRANSIENT SOLUTION       TEMPERATURE =   27.000 DEG C


******************************************************************************



 NODE   VOLTAGE     NODE   VOLTAGE     NODE   VOLTAGE     NODE   VOLTAGE


(  GND)    3.5737  (  VCC)    5.0000  ( VOUT)    3.5399  (N00288)    2.8588     

(N00292)    3.1021 (N00296)    2.8413 (N00334)    3.5399 (N00369)    3.4409     

(X_U1.6)   -1.1641 (X_U1.7)    3.5417 (X_U1.8)    3.5417 (X_U1.9)    0.0000     

(X_U1.10)    3.5181                   (X_U1.11)    3.5728                       

(X_U1.12)    3.4802                   (X_U1.13)    3.5183                       

(X_U1.14)    3.4900                   (X_U1.53)    2.9000                       

(X_U1.54)    4.1737                   (X_U1.90)     .0353                       

(X_U1.91)   40.0000                   (X_U1.92)  -40.0000                       

(X_U1.99)    4.2869                   




    VOLTAGE SOURCE CURRENTS
    NAME         CURRENT

    V_V1        -4.586E-05
    X_U1.VB     -1.164E-05
    X_U1.VC     -4.444E-05
    X_U1.VE     -3.518E-05
    X_U1.VLIM    3.528E-05
    X_U1.VLP    -3.997E-11
    X_U1.VLN    -4.004E-11

    TOTAL POWER DISSIPATION   3.44E-04  WATTS


**** 12/21/21 16:59:00 ****** PSpice 17.2.0 (March 2016) ****** ID# 0 ********

 ** Profile: "15.4(3)-2"  [ D:\Software\Cadence_PSpice\Project\12.21-1\12-21-1-pspicefiles\15.4(3)\2.sim ] 


 ****     FOURIER ANALYSIS                 TEMPERATURE =   27.000 DEG C


******************************************************************************



FOURIER COMPONENTS OF TRANSIENT RESPONSE V(VOUT)



 DC COMPONENT =   3.5399E+00

 HARMONIC   FREQUENCY     FOURIER     NORMALIZED     PHASE     NORMALIZED
    NO         (HZ)      COMPONENT     COMPONENT     (DEG)     PHASE (DEG)

     1    2.0000E+04   4.0384E-16   1.0000E+00  -1.3583E+02   0.0000E+00
     2    4.0000E+04   5.9463E-16   1.4724E+00  -8.2244E+01   1.8941E+02
     3    6.0000E+04   4.9660E-16   1.2297E+00   9.1704E+00   4.1665E+02
     4    8.0000E+04   4.3063E-16   1.0664E+00  -4.5621E+01   4.9769E+02
     5    1.0000E+05   6.0397E-16   1.4956E+00  -1.3795E+02   5.4118E+02
     6    1.2000E+05   2.4095E-15   5.9665E+00  -1.2007E+01   8.0296E+02
     7    1.4000E+05   2.5151E-15   6.2279E+00   2.0033E-01   9.5099E+02
     8    1.6000E+05   7.8871E-15   1.9530E+01   3.7662E+01   1.1243E+03
     9    1.8000E+05   1.8555E-15   4.5947E+00   9.0000E+01   1.3124E+03


     TOTAL HARMONIC DISTORTION =   2.2000E+03 PERCENT


          JOB CONCLUDED

**** 12/21/21 16:59:00 ****** PSpice 17.2.0 (March 2016) ****** ID# 0 ********

 ** Profile: "15.4(3)-2"  [ D:\Software\Cadence_PSpice\Project\12.21-1\12-21-1-pspicefiles\15.4(3)\2.sim ] 


 ****     JOB STATISTICS SUMMARY


******************************************************************************



  Total job time (using Solver 1)   =         .13
