
**** 12/15/21 15:43:40 ****** PSpice 17.2.0 (March 2016) ****** ID# 0 ********

 ** Profile: "14.7(3)-8"  [ D:\Software\Cadence_PSpice\Project\Common arithmetic circuit\Common_arithmetic_circuit-PSpiceFiles\14.7(3


 ****     CIRCUIT DESCRIPTION


******************************************************************************




** Creating circuit file "8.cir" 
** WARNING: THIS AUTOMATICALLY GENERATED FILE MAY BE OVERWRITTEN BY SUBSEQUENT SIMULATIONS

*Libraries: 
* Profile Libraries :
* Local Libraries :
* From [PSPICE NETLIST] section of D:\Software\Cadence_PSpice\Cadence\SPB_Data\cdssetup\OrCAD_PSpice\17.2.0\PSpice.ini file:
.lib "nom.lib" 

*Analysis directives: 
.TRAN  0 150m 0 
.OPTIONS ADVCONV
.PROBE64 V(alias(*)) I(alias(*)) W(alias(*)) D(alias(*)) NOISE(alias(*)) 
.INC "..\14.7(3).net" 



**** INCLUDING 14.7(3).net ****
* source COMMON_ARITHMETIC_CIRCUIT
X_U5         VEE N04153 VCC 0 VOUT OP-07C/301/TI
C_C2         N04153 VOUT  1n  TC=0,0 
C_C1         N04145 N04149  1n  TC=0,0 
R_R12         N04153 VOUT  1k TC=0,0 
R_R11         N04149 N04153  1k TC=0,0 
V_V1         VCC 0 10Vdc
V_V2         0 N04145  
+PULSE 0 3 0 0 0 0.5M 0.002
V_V3         VEE 0 5

**** RESUMING 8.cir ****
.END

**** 12/15/21 15:43:40 ****** PSpice 17.2.0 (March 2016) ****** ID# 0 ********

 ** Profile: "14.7(3)-8"  [ D:\Software\Cadence_PSpice\Project\Common arithmetic circuit\Common_arithmetic_circuit-PSpiceFiles\14.7(3


 ****     Diode MODEL PARAMETERS


******************************************************************************




               X_U5.DX         
          IS  800.000000E-18 


**** 12/15/21 15:43:40 ****** PSpice 17.2.0 (March 2016) ****** ID# 0 ********

 ** Profile: "14.7(3)-8"  [ D:\Software\Cadence_PSpice\Project\Common arithmetic circuit\Common_arithmetic_circuit-PSpiceFiles\14.7(3


 ****     BJT MODEL PARAMETERS


******************************************************************************




               X_U5.QX         
               NPN             
       LEVEL    1            
          IS  800.000000E-18 
          BF    5.357000E+03 
          NF    1            
          BR    1            
          NR    1            
         ISS    0            
          RE    0            
          RC    0            
         CJE    0            
         VJE     .75         
         CJC    0            
         VJC     .75         
         MJC     .33         
        XCJC    1            
         CJS    0            
         VJS     .75         
          KF    0            
          AF    1            
          CN    2.42         
           D     .87         


WARNING(ORPSIM-15452): Pulse Period < (Rise Time + Fall Time + Pulse Width) for V_V2.

**** 12/15/21 15:43:40 ****** PSpice 17.2.0 (March 2016) ****** ID# 0 ********

 ** Profile: "14.7(3)-8"  [ D:\Software\Cadence_PSpice\Project\Common arithmetic circuit\Common_arithmetic_circuit-PSpiceFiles\14.7(3


 ****     INITIAL TRANSIENT SOLUTION       TEMPERATURE =   27.000 DEG C


******************************************************************************



 NODE   VOLTAGE     NODE   VOLTAGE     NODE   VOLTAGE     NODE   VOLTAGE


(  VCC)   10.0000  (  VEE)    5.0000  ( VOUT)    5.0000  (N04145)    0.0000     

(N04149)    5.0000 (N04153)    5.0000 (X_U5.6)-23.48E-12 (X_U5.7)    5.0000     

(X_U5.8)    5.0000 (X_U5.9)    0.0000 (X_U5.10)    4.4169                       

(X_U5.11)    9.9669                   (X_U5.12)    9.9669                       

(X_U5.13)    4.4241                   (X_U5.14)    4.4241                       

(X_U5.53)    7.1000                   (X_U5.54)    2.9000                       

(X_U5.90) 693.0E-09                   (X_U5.91)   20.0000                       

(X_U5.92)  -20.0000                   (X_U5.99)    5.0000                   




    VOLTAGE SOURCE CURRENTS
    NAME         CURRENT

    V_V1        -8.380E-04
    V_V2         0.000E+00
    V_V3        -6.930E-10
    X_U5.VB     -2.348E-16
    X_U5.VC      2.101E-12
    X_U5.VE      2.101E-12
    X_U5.VLIM    6.930E-10
    X_U5.VLP    -2.000E-11
    X_U5.VLN    -2.000E-11

    TOTAL POWER DISSIPATION   8.38E-03  WATTS



          JOB CONCLUDED

**** 12/15/21 15:43:40 ****** PSpice 17.2.0 (March 2016) ****** ID# 0 ********

 ** Profile: "14.7(3)-8"  [ D:\Software\Cadence_PSpice\Project\Common arithmetic circuit\Common_arithmetic_circuit-PSpiceFiles\14.7(3


 ****     JOB STATISTICS SUMMARY


******************************************************************************



  License check-out time            =        1.58
  Total job time (using Solver 1)   =         .22
