
**** 11/02/21 11:42:31 ******* PSpice Lite (March 2016) ******* ID# 10813 ****

 ** Profile: "SCHEMATIC1-bias"  [ D:\Progrem_Code\PSpice_project\shangji\PSPICE06\PSPICE06\06-pspicefiles\schematic1\bias.sim ] 


 ****     CIRCUIT DESCRIPTION


******************************************************************************




** Creating circuit file "bias.cir" 
** WARNING: THIS AUTOMATICALLY GENERATED FILE MAY BE OVERWRITTEN BY SUBSEQUENT SIMULATIONS

*Libraries: 
* Profile Libraries :
* Local Libraries :
.LIB "../../../06-pspicefiles/06.lib" 
* From [PSPICE NETLIST] section of C:\Users\wu\AppData\Roaming\SPB_Data\cdssetup\OrCAD_PSpice\17.2.0\PSpice.ini file:
.lib "nomd.lib" 

*Analysis directives: 
.TRAN  0 5m 0 0.1m 
.FOUR 1k 9 V([OUT]) 
.OPTIONS ADVCONV
.PROBE64 V(alias(*)) I(alias(*)) W(alias(*)) D(alias(*)) NOISE(alias(*)) 
.INC "..\SCHEMATIC1.net" 



**** INCLUDING SCHEMATIC1.net ****
* source 06
V_V1         IN 0  AC 1
+SIN 0 20m 10k 0 0 0
R_Rb1         N14526 VCC  33k TC=0,0 
R_Rb2         0 N14526  7k TC=0,0 
R_Rc         N14585 VCC  3.3k TC=0,0 
R_Re         0 N14589  1.3k TC=0,0 
R_RL         0 OUT  5.1k TC=0,0 
C_C1         IN N14526  10u  TC=0,0 
C_C2         N14585 OUT  10u  TC=0,0 
C_C3         0 N14589  50u  TC=0,0 
Q_Q1         N14585 N14526 N14589 Q2N3904
V_V2         VCC 0 12Vdc

**** RESUMING bias.cir ****
.END

**** 11/02/21 11:42:31 ******* PSpice Lite (March 2016) ******* ID# 10813 ****

 ** Profile: "SCHEMATIC1-bias"  [ D:\Progrem_Code\PSpice_project\shangji\PSPICE06\PSPICE06\06-pspicefiles\schematic1\bias.sim ] 


 ****     BJT MODEL PARAMETERS


******************************************************************************




               Q2N3904         
               NPN             
       LEVEL    1            
          IS    6.734000E-15 
          BF   50            
          NF    1            
         VAF   74.03         
         IKF     .06678      
         ISE    6.734000E-15 
          NE    1.259        
          BR     .7371       
          NR    1            
         ISS    0            
          RB   10            
          RE    0            
          RC    1            
         CJE    4.493000E-12 
         VJE     .75         
         MJE     .2593       
         CJC    3.638000E-12 
         VJC     .75         
         MJC     .3085       
        XCJC    1            
         CJS    0            
         VJS     .75         
          TF  301.200000E-12 
         XTF    2            
         VTF    4            
         ITF     .4          
          TR  239.500000E-09 
         XTB    1.5          
          KF    0            
          AF    1            
          CN    2.42         
           D     .87         


**** 11/02/21 11:42:31 ******* PSpice Lite (March 2016) ******* ID# 10813 ****

 ** Profile: "SCHEMATIC1-bias"  [ D:\Progrem_Code\PSpice_project\shangji\PSPICE06\PSPICE06\06-pspicefiles\schematic1\bias.sim ] 


 ****     INITIAL TRANSIENT SOLUTION       TEMPERATURE =   27.000 DEG C


******************************************************************************



 NODE   VOLTAGE     NODE   VOLTAGE     NODE   VOLTAGE     NODE   VOLTAGE


(   IN)    0.0000  (  OUT)    0.0000  (  VCC)   12.0000  (N14526)    1.9679     

(N14585)    8.7635 (N14589)    1.3047 




    VOLTAGE SOURCE CURRENTS
    NAME         CURRENT

    V_V1         0.000E+00
    V_V2        -1.285E-03

    TOTAL POWER DISSIPATION   1.54E-02  WATTS


**** 11/02/21 11:42:31 ******* PSpice Lite (March 2016) ******* ID# 10813 ****

 ** Profile: "SCHEMATIC1-bias"  [ D:\Progrem_Code\PSpice_project\shangji\PSPICE06\PSPICE06\06-pspicefiles\schematic1\bias.sim ] 


 ****     FOURIER ANALYSIS                 TEMPERATURE =   27.000 DEG C


******************************************************************************



FOURIER COMPONENTS OF TRANSIENT RESPONSE V(OUT)



 DC COMPONENT =  -6.1432E-04

 HARMONIC   FREQUENCY     FOURIER     NORMALIZED     PHASE     NORMALIZED
    NO         (HZ)      COMPONENT     COMPONENT     (DEG)     PHASE (DEG)

     1    1.0000E+03   8.9744E-03   1.0000E+00   1.7977E+02   0.0000E+00
     2    2.0000E+03   1.4188E-03   1.5809E-01   1.1932E+02  -2.4022E+02
     3    3.0000E+03   2.1774E-03   2.4262E-01   1.2048E+02  -4.1884E+02
     4    4.0000E+03   1.5629E-03   1.7416E-01   1.0791E+02  -6.1118E+02
     5    5.0000E+03   1.2931E-03   1.4409E-01   9.2099E+01  -8.0676E+02
     6    6.0000E+03   1.8377E-03   2.0478E-01   7.9779E+01  -9.9885E+02
     7    7.0000E+03   8.5325E-04   9.5076E-02   3.4209E+01  -1.2242E+03
     8    8.0000E+03   1.1785E-03   1.3131E-01   1.0609E+02  -1.3321E+03
     9    9.0000E+03   4.4400E-04   4.9474E-02   1.6572E+02  -1.4522E+03


     TOTAL HARMONIC DISTORTION =   4.5345E+01 PERCENT


          JOB CONCLUDED

**** 11/02/21 11:42:31 ******* PSpice Lite (March 2016) ******* ID# 10813 ****

 ** Profile: "SCHEMATIC1-bias"  [ D:\Progrem_Code\PSpice_project\shangji\PSPICE06\PSPICE06\06-pspicefiles\schematic1\bias.sim ] 


 ****     JOB STATISTICS SUMMARY


******************************************************************************



  Total job time (using Solver 1)   =         .02
