
**** 12/21/21 17:02:00 ****** PSpice 17.2.0 (March 2016) ****** ID# 0 ********

 ** Profile: "SCHEMATIC1-1"  [ D:\Software\Cadence_PSpice\Project\12.21\12_21-pspicefiles\schematic1\1.sim ] 


 ****     CIRCUIT DESCRIPTION


******************************************************************************




** Creating circuit file "1.cir" 
** WARNING: THIS AUTOMATICALLY GENERATED FILE MAY BE OVERWRITTEN BY SUBSEQUENT SIMULATIONS

*Libraries: 
* Profile Libraries :
* Local Libraries :
* From [PSPICE NETLIST] section of D:\Software\Cadence_PSpice\Cadence\SPB_Data\cdssetup\OrCAD_PSpice\17.2.0\PSpice.ini file:
.lib "nom.lib" 

*Analysis directives: 
.TRAN  0 10s 0 0.001 
.FOUR 20k 9 V([VOUT]) 
.OPTIONS ADVCONV
.PROBE64 V(alias(*)) I(alias(*)) W(alias(*)) D(alias(*)) NOISE(alias(*)) 
.INC "..\SCHEMATIC1.net" 



**** INCLUDING SCHEMATIC1.net ****
* source 12_21
R_R6         N05084 VCC  65k TC=0,0 
X_U1         N05094 N05328 VCC 0 VOUT LM324/5_1/TI
C_C2         N05094 N05108  10n  TC=0,0 
V_V1         VCC 0 5Vdc
R_R2         N05108 VOUT  609 TC=0,0 
R_R5         N05518 VOUT  60k TC=0,0 
C_C1         N05084 N05094  10n  TC=0,0 
R_R3         N05084 N05328  10k TC=0,0 
R_R1         N05084 N05094  600 TC=0,0 
D_D2         N05518 N05328 D1N4148 
R_R4         N05328 VOUT  30k TC=0,0 
R_R7         0 N05084  35k TC=0,0 
C_C3         0 N05084  10n  TC=0,0 
D_D1         N05328 N05518 D1N4148 

**** RESUMING 1.cir ****
.END

**** 12/21/21 17:02:00 ****** PSpice 17.2.0 (March 2016) ****** ID# 0 ********

 ** Profile: "SCHEMATIC1-1"  [ D:\Software\Cadence_PSpice\Project\12.21\12_21-pspicefiles\schematic1\1.sim ] 


 ****     Diode MODEL PARAMETERS


******************************************************************************




               D1N4148         X_U1.DX         
          IS    2.682000E-09  800.000000E-18 
           N    1.836                        
         ISR    1.565000E-09                 
         IKF     .04417                      
          BV  100                            
         IBV  100.000000E-06                 
          RS     .5664                       
          TT   11.540000E-09                 
         CJO    4.000000E-12                 
          VJ     .5                          
           M     .3333                       


**** 12/21/21 17:02:00 ****** PSpice 17.2.0 (March 2016) ****** ID# 0 ********

 ** Profile: "SCHEMATIC1-1"  [ D:\Software\Cadence_PSpice\Project\12.21\12_21-pspicefiles\schematic1\1.sim ] 


 ****     BJT MODEL PARAMETERS


******************************************************************************




               X_U1.QX         
               PNP             
       LEVEL    1            
          IS  800.000000E-18 
          BF  250            
          NF    1            
          BR    1            
          NR    1            
         ISS    0            
          RE    0            
          RC    0            
         CJE    0            
         VJE     .75         
         CJC    0            
         VJC     .75         
         MJC     .33         
        XCJC    1            
         CJS    0            
         VJS     .75         
          KF    0            
          AF    1            
          CN    2.2          
           D     .52         


**** 12/21/21 17:02:00 ****** PSpice 17.2.0 (March 2016) ****** ID# 0 ********

 ** Profile: "SCHEMATIC1-1"  [ D:\Software\Cadence_PSpice\Project\12.21\12_21-pspicefiles\schematic1\1.sim ] 


 ****     INITIAL TRANSIENT SOLUTION       TEMPERATURE =   27.000 DEG C


******************************************************************************



 NODE   VOLTAGE     NODE   VOLTAGE     NODE   VOLTAGE     NODE   VOLTAGE


(  VCC)    5.0000  ( VOUT)    1.7500  (N05084)    1.7505 (N05094)    1.7505     

(N05108)    1.7500 (N05328)    1.7505 (N05518)    1.7500 (X_U1.6) 94.28E-06     

(X_U1.7)    1.7500 (X_U1.8)    1.7500 (X_U1.9)    0.0000 (X_U1.10)    2.3479    

(X_U1.11)     .0398                   (X_U1.12)     .0398                       

(X_U1.13)    2.3340                   (X_U1.14)    2.3339                       

(X_U1.53)    2.9000                   (X_U1.54)     .6000                       

(X_U1.90)-17.20E-06                   (X_U1.91)   40.0000                       

(X_U1.92)  -40.0000                   (X_U1.99)    2.5000                   




    VOLTAGE SOURCE CURRENTS
    NAME         CURRENT

    V_V1        -2.250E-04
    X_U1.VB      9.428E-10
    X_U1.VC      1.151E-12
    X_U1.VE      1.151E-12
    X_U1.VLIM   -1.720E-08
    X_U1.VLP    -4.000E-11
    X_U1.VLN    -4.000E-11

    TOTAL POWER DISSIPATION   1.13E-03  WATTS


**** 12/21/21 17:02:00 ****** PSpice 17.2.0 (March 2016) ****** ID# 0 ********

 ** Profile: "SCHEMATIC1-1"  [ D:\Software\Cadence_PSpice\Project\12.21\12_21-pspicefiles\schematic1\1.sim ] 


 ****     FOURIER ANALYSIS                 TEMPERATURE =   27.000 DEG C


******************************************************************************



FOURIER COMPONENTS OF TRANSIENT RESPONSE V(VOUT)



 DC COMPONENT =   0.0000E+00

 HARMONIC   FREQUENCY     FOURIER     NORMALIZED     PHASE     NORMALIZED
    NO         (HZ)      COMPONENT     COMPONENT     (DEG)     PHASE (DEG)

     1    2.0000E+04   1.0000E-30   1.0000E+00   0.0000E+00   0.0000E+00
     2    4.0000E+04   1.0000E-30   1.0000E+00   0.0000E+00   0.0000E+00
     3    6.0000E+04   1.0000E-30   1.0000E+00   0.0000E+00   0.0000E+00
     4    8.0000E+04   1.0000E-30   1.0000E+00   0.0000E+00   0.0000E+00
     5    1.0000E+05   1.0000E-30   1.0000E+00   0.0000E+00   0.0000E+00
     6    1.2000E+05   1.0000E-30   1.0000E+00   0.0000E+00   0.0000E+00
     7    1.4000E+05   1.0000E-30   1.0000E+00   0.0000E+00   0.0000E+00
     8    1.6000E+05   1.0000E-30   1.0000E+00   0.0000E+00   0.0000E+00
     9    1.8000E+05   1.0000E-30   1.0000E+00   0.0000E+00   0.0000E+00


     TOTAL HARMONIC DISTORTION =   2.8284E+02 PERCENT


          JOB CONCLUDED

**** 12/21/21 17:02:00 ****** PSpice 17.2.0 (March 2016) ****** ID# 0 ********

 ** Profile: "SCHEMATIC1-1"  [ D:\Software\Cadence_PSpice\Project\12.21\12_21-pspicefiles\schematic1\1.sim ] 


 ****     JOB STATISTICS SUMMARY


******************************************************************************



  License check-out time            =        1.34
  Total job time (using Solver 1)   =         .72
