
**** 12/15/21 15:44:45 ****** PSpice 17.2.0 (March 2016) ****** ID# 0 ********

 ** Profile: "14.7(1)-6"  [ D:\Software\Cadence_PSpice\Project\Common arithmetic circuit\Common_arithmetic_circuit-PSpiceFiles\14.7(1


 ****     CIRCUIT DESCRIPTION


******************************************************************************




** Creating circuit file "6.cir" 
** WARNING: THIS AUTOMATICALLY GENERATED FILE MAY BE OVERWRITTEN BY SUBSEQUENT SIMULATIONS

*Libraries: 
* Profile Libraries :
* Local Libraries :
* From [PSPICE NETLIST] section of D:\Software\Cadence_PSpice\Cadence\SPB_Data\cdssetup\OrCAD_PSpice\17.2.0\PSpice.ini file:
.lib "nom.lib" 

*Analysis directives: 
.TRAN  0 150m 0 
.OPTIONS ADVCONV
.PROBE64 V(alias(*)) I(alias(*)) W(alias(*)) D(alias(*)) NOISE(alias(*)) 
.INC "..\14.7(1).net" 



**** INCLUDING 14.7(1).net ****
* source COMMON_ARITHMETIC_CIRCUIT
X_U3         N02489 N02541 VCC 0 VOUT OP-07C/301/TI
R_R6         N02489 VCC/2  1k TC=0,0 
R_R5         N02541 VOUT  1k TC=0,0 
C_C2         VCC/2 N02489  1n  TC=0,0 
R_R4         N02537 N02541  1k TC=0,0 
V_V1         VCC 0 10Vdc
V_V2         0 N02537  
+PULSE 0 3 0 0 0 0.5M 0.0001

**** RESUMING 6.cir ****
.END

**** 12/15/21 15:44:45 ****** PSpice 17.2.0 (March 2016) ****** ID# 0 ********

 ** Profile: "14.7(1)-6"  [ D:\Software\Cadence_PSpice\Project\Common arithmetic circuit\Common_arithmetic_circuit-PSpiceFiles\14.7(1


 ****     Diode MODEL PARAMETERS


******************************************************************************




               X_U3.DX         
          IS  800.000000E-18 


**** 12/15/21 15:44:45 ****** PSpice 17.2.0 (March 2016) ****** ID# 0 ********

 ** Profile: "14.7(1)-6"  [ D:\Software\Cadence_PSpice\Project\Common arithmetic circuit\Common_arithmetic_circuit-PSpiceFiles\14.7(1


 ****     BJT MODEL PARAMETERS


******************************************************************************




               X_U3.QX         
               NPN             
       LEVEL    1            
          IS  800.000000E-18 
          BF    5.357000E+03 
          NF    1            
          BR    1            
          NR    1            
         ISS    0            
          RE    0            
          RC    0            
         CJE    0            
         VJE     .75         
         CJC    0            
         VJC     .75         
         MJC     .33         
        XCJC    1            
         CJS    0            
         VJS     .75         
          KF    0            
          AF    1            
          CN    2.42         
           D     .87         


WARNING(ORPSIM-15452): Pulse Period < (Rise Time + Fall Time + Pulse Width) for V_V2.

**** 12/15/21 15:44:45 ****** PSpice 17.2.0 (March 2016) ****** ID# 0 ********

 ** Profile: "14.7(1)-6"  [ D:\Software\Cadence_PSpice\Project\Common arithmetic circuit\Common_arithmetic_circuit-PSpiceFiles\14.7(1


 ****     INITIAL TRANSIENT SOLUTION       TEMPERATURE =   27.000 DEG C


******************************************************************************



 NODE   VOLTAGE     NODE   VOLTAGE     NODE   VOLTAGE     NODE   VOLTAGE


(  VCC)   10.0000  ( VOUT)    2.2970  (VCC/2)    1.0047  (N02489)    1.0047     

(N02537)    0.0000 (N02541)    1.1485 (X_U3.6)     .7235 (X_U3.7)    2.3312     

(X_U3.8)    2.3312 (X_U3.9)    0.0000 (X_U3.10)     .5412                       

(X_U3.11)    9.9356                   (X_U3.12)    9.9996                       

(X_U3.13)     .5554                   (X_U3.14)     .5413                       

(X_U3.53)    7.1000                   (X_U3.54)    2.9000                       

(X_U3.90)    1.1379                   (X_U3.91)   20.0000                       

(X_U3.92)  -20.0000                   (X_U3.99)    5.0000                   




    VOLTAGE SOURCE CURRENTS
    NAME         CURRENT

    V_V1        -8.379E-04
    V_V2        -1.149E-03
    X_U3.VB      7.235E-06
    X_U3.VC      4.804E-12
    X_U3.VE     -1.066E-05
    X_U3.VLIM    1.138E-03
    X_U3.VLP    -1.886E-11
    X_U3.VLN    -2.114E-11

    TOTAL POWER DISSIPATION   8.41E-03  WATTS



          JOB CONCLUDED

**** 12/15/21 15:44:45 ****** PSpice 17.2.0 (March 2016) ****** ID# 0 ********

 ** Profile: "14.7(1)-6"  [ D:\Software\Cadence_PSpice\Project\Common arithmetic circuit\Common_arithmetic_circuit-PSpiceFiles\14.7(1


 ****     JOB STATISTICS SUMMARY


******************************************************************************



  License check-out time            =        2.55
  Total job time (using Solver 1)   =         .06
