
**** 03/21/22 17:59:52 ****** PSpice 17.2.0 (March 2016) ****** ID# 0 ********

 ** Profile: "Triangular wave-2"  [ E:\Data\Simulation_Project\Electronic circuit design\exam_1-PSpiceFiles\Triangular wave\2.sim ] 


 ****     CIRCUIT DESCRIPTION


******************************************************************************




** Creating circuit file "2.cir" 
** WARNING: THIS AUTOMATICALLY GENERATED FILE MAY BE OVERWRITTEN BY SUBSEQUENT SIMULATIONS

*Libraries: 
* Profile Libraries :
* Local Libraries :
* From [PSPICE NETLIST] section of C:\Users\007\cdssetup\OrCAD_PSpice\17.2.0\PSpice.ini file:
.lib "nom.lib" 

*Analysis directives: 
.TRAN  0 500m 0 
.OPTIONS ADVCONV
.PROBE64 V(alias(*)) I(alias(*)) W(alias(*)) D(alias(*)) NOISE(alias(*)) 
.INC "..\Triangular wave.net" 



**** INCLUDING "Triangular wave.net" ****
* source EXAM_1
R_R2         N27681 N27743  10k TC=0,0 
X_U1C         N27743 N27989 VCC 0 UO11 LM324
R_R9         N27939 UO1  1k TC=0,0 
D_D3         N28139 N28147 D1N4148 
R_R3         N27681 VCC  50k TC=0,0 
R_R1         N27743 UO11  33k TC=0,0 
R_R25         N28147 UO11  10k TC=0,0 
C_C8         0 UO1  100nf  TC=0,0 
C_C7         0 N27939  100nf  TC=0,0 
R_R5         N28139 N27989  30k TC=0,0 
D_D4         N28237 N28139 D1N4148 
C_C2         0 N27989  10n  TC=0,0 
R_R19         UO1 0  3meg TC=0,0 
R_R26         N28237 UO11  10k TC=0,0 
R_R4         0 N27681  1.6k TC=0,0 
C_C1         0 N27681  1n  TC=0,0 
R_R8         N278791 N27939  900 TC=0,0 
C_C6         UO11 N278791  10u  TC=0,0 
V_V1         VCC 0 12Vdc

**** RESUMING 2.cir ****
.END

**** 03/21/22 17:59:52 ****** PSpice 17.2.0 (March 2016) ****** ID# 0 ********

 ** Profile: "Triangular wave-2"  [ E:\Data\Simulation_Project\Electronic circuit design\exam_1-PSpiceFiles\Triangular wave\2.sim ] 


 ****     Diode MODEL PARAMETERS


******************************************************************************




               D1N4148         X_U1C.dx        X_U1C.dy        
          IS    2.682000E-09  800.000000E-18  800.000000E-18 
           N    1.836                                        
         ISR    1.565000E-09                                 
         IKF     .04417                                      
          BV  100                                            
         IBV  100.000000E-06                                 
          RS     .5664          1               1.000000E-03 
          TT   11.540000E-09                                 
         CJO    4.000000E-12                   10.000000E-12 
          VJ     .5                                          
           M     .3333                                       


**** 03/21/22 17:59:52 ****** PSpice 17.2.0 (March 2016) ****** ID# 0 ********

 ** Profile: "Triangular wave-2"  [ E:\Data\Simulation_Project\Electronic circuit design\exam_1-PSpiceFiles\Triangular wave\2.sim ] 


 ****     BJT MODEL PARAMETERS


******************************************************************************




               X_U1C.qx        
               PNP             
       LEVEL    1            
          IS  800.000000E-18 
          BF  166.7          
          NF    1            
          BR    1            
          NR    1            
         ISS    0            
          RE    0            
          RC    0            
         CJE    0            
         VJE     .75         
         CJC    0            
         VJC     .75         
         MJC     .33         
        XCJC    1            
         CJS    0            
         VJS     .75         
          KF    0            
          AF    1            
          CN    2.2          
           D     .52         


**** 03/21/22 17:59:52 ****** PSpice 17.2.0 (March 2016) ****** ID# 0 ********

 ** Profile: "Triangular wave-2"  [ E:\Data\Simulation_Project\Electronic circuit design\exam_1-PSpiceFiles\Triangular wave\2.sim ] 


 ****     Current Controlled Switch MODEL PARAMETERS


******************************************************************************




               X_U1C.sw2       X_U1C.sw1       X_U1C.sw3       X_U1C.sw4       
         RON    1               1               1               1            
        ROFF   10.000000E+06   10.000000E+06   10.000000E+06   10.000000E+06 
         ION    0              -1.000000E-06   -1.000000E-06    0            
        IOFF   -1.000000E-06    0               0              -1.000000E-06 


**** 03/21/22 17:59:52 ****** PSpice 17.2.0 (March 2016) ****** ID# 0 ********

 ** Profile: "Triangular wave-2"  [ E:\Data\Simulation_Project\Electronic circuit design\exam_1-PSpiceFiles\Triangular wave\2.sim ] 


 ****     INITIAL TRANSIENT SOLUTION       TEMPERATURE =   27.000 DEG C


******************************************************************************



 NODE   VOLTAGE     NODE   VOLTAGE     NODE   VOLTAGE     NODE   VOLTAGE


(  UO1)    0.0000  (  VCC)   12.0000  ( UO11)     .2144  (N27681)     .3667     

(N27743)     .3316 (N27939)    0.0000 (N27989)     .3332 (N28139)     .3319     

(N28147)     .2148 (N28237)     .2145 (N278791)    0.0000                       

(X_U1C.6)     .0012                   (X_U1C.7)     .2136                       

(X_U1C.8)     .2136                   (X_U1C.9)    0.0000                       

(X_U1C.a) 17.54E-06                   (X_U1C.b) 16.34E-06                       

(X_U1C.10)     .9412                  (X_U1C.11)     .0400                      

(X_U1C.12)     .0416                  (X_U1C.13)     .9272                      

(X_U1C.14)     .9267                  (X_U1C.53)   10.5000                      

(X_U1C.54)     .8220                  (X_U1C.90)    -.0163                      

(X_U1C.91)   40.0000                  (X_U1C.92)  -40.0000                      

(X_U1C.99)    6.0000                  




    VOLTAGE SOURCE CURRENTS
    NAME         CURRENT

    V_V1        -1.570E-03
    X_U1C.vb     1.151E-08
    X_U1C.vc     1.029E-11
    X_U1C.ve    -1.274E-05
    X_U1C.vlim  -1.634E-05
    X_U1C.vlp   -4.002E-11
    X_U1C.vln   -3.999E-11

    TOTAL POWER DISSIPATION   1.89E-02  WATTS



          JOB CONCLUDED

**** 03/21/22 17:59:52 ****** PSpice 17.2.0 (March 2016) ****** ID# 0 ********

 ** Profile: "Triangular wave-2"  [ E:\Data\Simulation_Project\Electronic circuit design\exam_1-PSpiceFiles\Triangular wave\2.sim ] 


 ****     JOB STATISTICS SUMMARY


******************************************************************************



  License check-out time            =      187.01
  Total job time (using Solver 1)   =        1.89
