
**** 09/28/21 11:37:07 ******* PSpice Lite (March 2016) ******* ID# 10813 ****

 ** Profile: "SCHEMATIC1-008"  [ G:\JO008\008-PSpiceFiles\SCHEMATIC1\008.sim ] 


 ****     CIRCUIT DESCRIPTION


******************************************************************************




** Creating circuit file "008.cir" 
** WARNING: THIS AUTOMATICALLY GENERATED FILE MAY BE OVERWRITTEN BY SUBSEQUENT SIMULATIONS

*Libraries: 
* Profile Libraries :
* Local Libraries :
* From [PSPICE NETLIST] section of C:\SPB_Data\cdssetup\OrCAD_PSpice\17.2.0\PSpice.ini file:
.lib "nomd.lib" 

*Analysis directives: 
.TRAN  0 1000ns 0 
.OPTIONS ADVCONV
.PROBE64 V(alias(*)) I(alias(*)) W(alias(*)) D(alias(*)) NOISE(alias(*)) 
.INC "..\SCHEMATIC1.net" 



**** INCLUDING SCHEMATIC1.net ****
* source 008
R_R1         N14683 VCC  500 TC=0,0 
R_R2         N14655 N14679  20 TC=0,0 
R_R3         0 N14655  480 TC=0,0 
R_R4         N14687 VCC  13k TC=0,0 
R_R5         0 N14687  8k TC=0,0 
R_R6         0 N14751  50k TC=0,0 
C_C1         N14683 N14751  10u  TC=0,0 
C_C2         N14620 N14687  10u  TC=0,0 
R_R7         N14613 N14620  0.1 TC=0,0 
Q_Q1         N14683 N14687 N14679 Q2N2222
C_C3         0 N14655  10u  TC=0,0 
V_V2         VCC_CIRCLE 0 15Vdc
V_V3         N14613 0  
+SIN 0 1m 1k 0 0 0

**** RESUMING 008.cir ****
.END

**** 09/28/21 11:37:07 ******* PSpice Lite (March 2016) ******* ID# 10813 ****

 ** Profile: "SCHEMATIC1-008"  [ G:\JO008\008-PSpiceFiles\SCHEMATIC1\008.sim ] 


 ****     BJT MODEL PARAMETERS


******************************************************************************




               Q2N2222         
               NPN             
       LEVEL    1            
          IS   14.340000E-15 
          BF  255.9          
          NF    1            
         VAF   74.03         
         IKF     .2847       
         ISE   14.340000E-15 
          NE    1.307        
          BR    6.092        
          NR    1            
         ISS    0            
          RB   10            
          RE    0            
          RC    1            
         CJE   22.010000E-12 
         VJE     .75         
         MJE     .377        
         CJC    7.306000E-12 
         VJC     .75         
         MJC     .3416       
        XCJC    1            
         CJS    0            
         VJS     .75         
          TF  411.100000E-12 
         XTF    3            
         VTF    1.7          
         ITF     .6          
          TR   46.910000E-09 
         XTB    1.5          
          KF    0            
          AF    1            
          CN    2.42         
           D     .87         


**** 09/28/21 11:37:07 ******* PSpice Lite (March 2016) ******* ID# 10813 ****

 ** Profile: "SCHEMATIC1-008"  [ G:\JO008\008-PSpiceFiles\SCHEMATIC1\008.sim ] 


 ****     INITIAL TRANSIENT SOLUTION       TEMPERATURE =   27.000 DEG C


******************************************************************************



 NODE   VOLTAGE     NODE   VOLTAGE     NODE   VOLTAGE     NODE   VOLTAGE


(  VCC)-12.04E-27  (N14613)    0.0000 (N14620)    0.0000 (N14655) 339.0E-30     

(N14679) 353.1E-30 (N14683)-12.28E-27 (N14687)-5.649E-27 (N14751)    0.0000     

(VCC_CIRCLE)   15.0000                




    VOLTAGE SOURCE CURRENTS
    NAME         CURRENT

    V_V2         0.000E+00
    V_V3         0.000E+00

    TOTAL POWER DISSIPATION   0.00E+00  WATTS



          JOB CONCLUDED

**** 09/28/21 11:37:07 ******* PSpice Lite (March 2016) ******* ID# 10813 ****

 ** Profile: "SCHEMATIC1-008"  [ G:\JO008\008-PSpiceFiles\SCHEMATIC1\008.sim ] 


 ****     JOB STATISTICS SUMMARY


******************************************************************************



  Total job time (using Solver 1)   =         .05
