
**** 11/01/21 10:30:51 ******* PSpice Lite (March 2016) ******* ID# 10813 ****

 ** Profile: "Transient_analysis-Transient_analysis"  [ D:\Software\Capture_PSpice\Project\Transient analysis and Fourier analysis\Tr


 ****     CIRCUIT DESCRIPTION


******************************************************************************




** Creating circuit file "Transient_analysis.cir" 
** WARNING: THIS AUTOMATICALLY GENERATED FILE MAY BE OVERWRITTEN BY SUBSEQUENT SIMULATIONS

*Libraries: 
* Profile Libraries :
* Local Libraries :
* From [PSPICE NETLIST] section of C:\SPB_Data\cdssetup\OrCAD_PSpice\17.2.0\PSpice.ini file:
.lib "nomd.lib" 

*Analysis directives: 
.TRAN  0 10u 0 0.001 
.OPTIONS ADVCONV
.PROBE64 V(alias(*)) I(alias(*)) W(alias(*)) D(alias(*)) NOISE(alias(*)) 
.INC "..\Transient_analysis.net" 



**** INCLUDING Transient_analysis.net ****
* source TRANSIENT ANALYSIS AND FOURIER ANALYSIS
V_V1         N00106 0 1Vdc
R_R1         N00106 N00113  100k TC=0,0 
C_C1         0 N00113  10p IC=0 TC=0,0 

**** RESUMING Transient_analysis.cir ****
.END

**** 11/01/21 10:30:51 ******* PSpice Lite (March 2016) ******* ID# 10813 ****

 ** Profile: "Transient_analysis-Transient_analysis"  [ D:\Software\Capture_PSpice\Project\Transient analysis and Fourier analysis\Tr


 ****     INITIAL TRANSIENT SOLUTION       TEMPERATURE =   27.000 DEG C


******************************************************************************



 NODE   VOLTAGE     NODE   VOLTAGE     NODE   VOLTAGE     NODE   VOLTAGE


(N00106)    1.0000 (N00113) 20.00E-09 




    VOLTAGE SOURCE CURRENTS
    NAME         CURRENT

    V_V1        -1.000E-05

    TOTAL POWER DISSIPATION   1.00E-05  WATTS



          JOB CONCLUDED

**** 11/01/21 10:30:51 ******* PSpice Lite (March 2016) ******* ID# 10813 ****

 ** Profile: "Transient_analysis-Transient_analysis"  [ D:\Software\Capture_PSpice\Project\Transient analysis and Fourier analysis\Tr


 ****     JOB STATISTICS SUMMARY


******************************************************************************



  Total job time (using Solver 1)   =         .02
