
**** 12/15/21 15:40:23 ****** PSpice 17.2.0 (March 2016) ****** ID# 0 ********

 ** Profile: "15.4(1)-4"  [ D:\Software\Cadence_PSpice\Project\Common waveform generating circuit\Common waveform generating circuit-


 ****     CIRCUIT DESCRIPTION


******************************************************************************




** Creating circuit file "4.cir" 
** WARNING: THIS AUTOMATICALLY GENERATED FILE MAY BE OVERWRITTEN BY SUBSEQUENT SIMULATIONS

*Libraries: 
* Profile Libraries :
* Local Libraries :
* From [PSPICE NETLIST] section of D:\Software\Cadence_PSpice\Cadence\SPB_Data\cdssetup\OrCAD_PSpice\17.2.0\PSpice.ini file:
.lib "nom.lib" 

*Analysis directives: 
.TRAN  0 150M 0 
.OPTIONS ADVCONV
.PROBE64 V(alias(*)) I(alias(*)) W(alias(*)) D(alias(*)) NOISE(alias(*)) 
.INC "..\15.4(1).net" 



**** INCLUDING 15.4(1).net ****
* source COMMON WAVEFORM GENERATING CIRCUIT
R_R1         N06190 N06240  1k TC=0,0 
R_R3         N06240 VOUT  1k TC=0,0 
R_R5         VOUT N06284  1k TC=0,0 
R_R4         0 N06190  1k TC=0,0 
X_U1         N06240 N06284 VCC 0 VOUT LM324/5_1/TI
C_C1         N06190 N06284  1U  TC=0,0 
C_C3         0 VCC  1n  TC=0,0 
R_R2         N06190 VCC  1k TC=0,0 
C_C4         0 VCC  1n  TC=0,0 
C_C2         0 N06190  1n  TC=0,0 
V_V1         VCC 0 5Vdc

**** RESUMING 4.cir ****
.END

**** 12/15/21 15:40:23 ****** PSpice 17.2.0 (March 2016) ****** ID# 0 ********

 ** Profile: "15.4(1)-4"  [ D:\Software\Cadence_PSpice\Project\Common waveform generating circuit\Common waveform generating circuit-


 ****     Diode MODEL PARAMETERS


******************************************************************************




               X_U1.DX         
          IS  800.000000E-18 


**** 12/15/21 15:40:23 ****** PSpice 17.2.0 (March 2016) ****** ID# 0 ********

 ** Profile: "15.4(1)-4"  [ D:\Software\Cadence_PSpice\Project\Common waveform generating circuit\Common waveform generating circuit-


 ****     BJT MODEL PARAMETERS


******************************************************************************




               X_U1.QX         
               PNP             
       LEVEL    1            
          IS  800.000000E-18 
          BF  250            
          NF    1            
          BR    1            
          NR    1            
         ISS    0            
          RE    0            
          RC    0            
         CJE    0            
         VJE     .75         
         CJC    0            
         VJC     .75         
         MJC     .33         
        XCJC    1            
         CJS    0            
         VJS     .75         
          KF    0            
          AF    1            
          CN    2.2          
           D     .52         


**** 12/15/21 15:40:23 ****** PSpice 17.2.0 (March 2016) ****** ID# 0 ********

 ** Profile: "15.4(1)-4"  [ D:\Software\Cadence_PSpice\Project\Common waveform generating circuit\Common waveform generating circuit-


 ****     INITIAL TRANSIENT SOLUTION       TEMPERATURE =   27.000 DEG C


******************************************************************************



 NODE   VOLTAGE     NODE   VOLTAGE     NODE   VOLTAGE     NODE   VOLTAGE


(  VCC)    5.0000  ( VOUT)    2.4999  (N06190)    2.5000 (N06240)    2.5000     

(N06284)    2.4999 (X_U1.6)-174.5E-09 (X_U1.7)    2.4999 (X_U1.8)    2.4999     

(X_U1.9)    0.0000 (X_U1.10)    3.0971                   (X_U1.11)     .0397    

(X_U1.12)     .0397                   (X_U1.13)    3.0832                       

(X_U1.14)    3.0833                   (X_U1.53)    2.9000                       

(X_U1.54)     .6000                   (X_U1.90)-73.54E-06                       

(X_U1.91)   40.0000                   (X_U1.92)  -40.0000                       

(X_U1.99)    2.5000                   




    VOLTAGE SOURCE CURRENTS
    NAME         CURRENT

    V_V1        -2.675E-03
    X_U1.VB     -1.745E-12
    X_U1.VC      4.009E-13
    X_U1.VE      1.901E-12
    X_U1.VLIM   -7.354E-08
    X_U1.VLP    -4.000E-11
    X_U1.VLN    -4.000E-11

    TOTAL POWER DISSIPATION   1.34E-02  WATTS



          JOB CONCLUDED

**** 12/15/21 15:40:23 ****** PSpice 17.2.0 (March 2016) ****** ID# 0 ********

 ** Profile: "15.4(1)-4"  [ D:\Software\Cadence_PSpice\Project\Common waveform generating circuit\Common waveform generating circuit-


 ****     JOB STATISTICS SUMMARY


******************************************************************************



  License check-out time            =         .66
  Total job time (using Solver 1)   =         .38
