
**** 12/21/21 10:25:17 ******* PSpice Lite (March 2016) ******* ID# 10813 ****

 ** Profile: "SCHEMATIC1-tran1"  [ G:\030\12.21\12-21-1-pspicefiles\schematic1\tran1.sim ] 


 ****     CIRCUIT DESCRIPTION


******************************************************************************




** Creating circuit file "tran1.cir" 
** WARNING: THIS AUTOMATICALLY GENERATED FILE MAY BE OVERWRITTEN BY SUBSEQUENT SIMULATIONS

*Libraries: 
* Profile Libraries :
* Local Libraries :
* From [PSPICE NETLIST] section of C:\SPB_Data\cdssetup\OrCAD_PSpice\17.2.0\PSpice.ini file:
.lib "nomd.lib" 

*Analysis directives: 
.TRAN  0 10m 0 100 
.OPTIONS ADVCONV
.PROBE64 V(alias(*)) I(alias(*)) W(alias(*)) D(alias(*)) NOISE(alias(*)) 
.INC "..\SCHEMATIC1.net" 



**** INCLUDING SCHEMATIC1.net ****
* source 12-21-1
C_C4         0 VCC  0.1u  TC=0,0 
R_R2         N02168 N02040  1k TC=0,0 
V_V1         VCC 0 10Vdc
X_X1         0 N02168 VOUT VCC N02200 N02168 N02040 VCC 555D PARAMS:
+  MAXFREQ=3E6
C_C1         0 N02200  10p  TC=0,0 
C_C3         0 VCC  10u  TC=0,0 
R_R1         N02040 VCC  1k TC=0,0 
C_C2         0 N02168  2.4n  TC=0,0 

**** RESUMING tran1.cir ****
.END


**** Generated AtoD and DtoA Interfaces ****

*
* Analog/Digital interface for node VCC
*
* Moving X_X1.u1:CLRBAR from analog node VCC to new digital node VCC$AtoD
X$VCC_AtoD1
+ VCC
+ VCC$AtoD
+ VCC
+ 0
+ atod_555
+       PARAMS: CAPACITANCE=   0     
*
* Analog/Digital interface for node X_X1.qb
*
* Moving X_X1.u1:QBAR1 from analog node X_X1.qb to new digital node X_X1.qb$DtoA
X$X_X1.qb_DtoA1
+ X_X1.qb$DtoA
+ X_X1.qb
+ VCC
+ 0
+ dtoa_555
+       PARAMS: DRVH=  96.4   DRVL= 104    CAPACITANCE=   0     
*
* Analog/Digital interface power supply subcircuits
*
X$DIGIFPWR 0 DIGIFPWR


**** 12/21/21 10:25:17 ******* PSpice Lite (March 2016) ******* ID# 10813 ****

 ** Profile: "SCHEMATIC1-tran1"  [ G:\030\12.21\12-21-1-pspicefiles\schematic1\tran1.sim ] 


 ****     MOSFET MODEL PARAMETERS


******************************************************************************




               X_X1.nchan      
               NMOS            
       LEVEL    1            
           L  100.000000E-06 
           W  100.000000E-06 
         VTO    0            
          KP   20.000000E-06 
       GAMMA    0            
         PHI     .6          
      LAMBDA    0            
          IS   10.000000E-15 
          JS    0            
          PB     .8          
        PBSW     .8          
          CJ    0            
        CJSW    0            
        CGSO    1.000000E-12 
        CGDO    1.000000E-12 
        CGBO    1.000000E-12 
         TOX    0            
          XJ    0            
       UCRIT   10.000000E+03 
      DIOMOD    1            
         VFB    0            
        LETA    0            
        WETA    0            
          U0    0            
        TEMP    0            
         VDD    5            
       XPART    0            


**** 12/21/21 10:25:17 ******* PSpice Lite (March 2016) ******* ID# 10813 ****

 ** Profile: "SCHEMATIC1-tran1"  [ G:\030\12.21\12-21-1-pspicefiles\schematic1\tran1.sim ] 


 ****     Digital Input MODEL PARAMETERS


******************************************************************************




               din555          
      S0NAME 0               
       S0TSW  700.000000E-12 
       S0RLO  100            
       S0RHI    1.000000E+06 
      S1NAME 1               
       S1TSW  700.000000E-12 
       S1RLO    1.000000E+06 
       S1RHI  300            
      S2NAME x               
       S2TSW  700.000000E-12 
       S2RLO  200            
       S2RHI  200            
      S3NAME r               
       S3TSW  700.000000E-12 
       S3RLO  200            
       S3RHI  200            
      S4NAME f               
       S4TSW  700.000000E-12 
       S4RLO  200            
       S4RHI  200            
      S5NAME z               
       S5TSW  700.000000E-12 
       S5RLO  200.000000E+03 
       S5RHI  200.000000E+03 


**** 12/21/21 10:25:17 ******* PSpice Lite (March 2016) ******* ID# 10813 ****

 ** Profile: "SCHEMATIC1-tran1"  [ G:\030\12.21\12-21-1-pspicefiles\schematic1\tran1.sim ] 


 ****     Digital Output MODEL PARAMETERS


******************************************************************************




               X_X1.cmp        do555           
    TIMESTEP  100.000000E-12  100.000000E-12 
      S0NAME 0               1               
       S0VHI                   18            
       S0VLO -500                .4          
      S1NAME 1               0               
       S1VHI  500                .4          
       S1VLO                   -1.5          


**** 12/21/21 10:25:17 ******* PSpice Lite (March 2016) ******* ID# 10813 ****

 ** Profile: "SCHEMATIC1-tran1"  [ G:\030\12.21\12-21-1-pspicefiles\schematic1\tran1.sim ] 


 ****     Digital Gated FF MODEL PARAMETERS


******************************************************************************




               X_X1.t_srff     
    TPDQLHMN    0            
    TPDQLHTY    0            
    TPDQLHMX    0            
    TPDQHLMN    0            
    TPDQHLTY    0            
    TPDQHLMX    0            
    TPGQLHMN    0            
    TPGQLHTY    0            
    TPGQLHMX    0            
    TPGQHLMN    0            
    TPGQHLTY    0            
    TPGQHLMX    0            
   TPPCQLHMN   48.000000E-09 
   TPPCQLHTY  120.000000E-09 
   TPPCQLHMX  192.000000E-09 
   TPPCQHLMN    0            
   TPPCQHLTY    0            
   TPPCQHLMX    0            
      TWGHMN    0            
      TWGHTY    0            
      TWGHMX    0            
     TWPCLMN    0            
     TWPCLTY    0            
     TWPCLMX    0            
     TSUDGMN    0            
     TSUDGTY    0            
     TSUDGMX    0            
   TSUPCGHMN    0            
   TSUPCGHTY    0            
   TSUPCGHMX    0            
      THDGMN    0            
      THDGTY    0            
      THDGMX    0            
TIMING_SRDEL    0            
TIMING_CLKDEL    0            


**** 12/21/21 10:25:17 ******* PSpice Lite (March 2016) ******* ID# 10813 ****

 ** Profile: "SCHEMATIC1-tran1"  [ G:\030\12.21\12-21-1-pspicefiles\schematic1\tran1.sim ] 


 ****     Digital Delay Line MODEL PARAMETERS


******************************************************************************




               X_X1.dlymod     
       DLYMN  166.666700E-09 
       DLYTY  166.666700E-09 
       DLYMX  166.666700E-09 


**** 12/21/21 10:25:17 ******* PSpice Lite (March 2016) ******* ID# 10813 ****

 ** Profile: "SCHEMATIC1-tran1"  [ G:\030\12.21\12-21-1-pspicefiles\schematic1\tran1.sim ] 


 ****     Digital IO  MODEL PARAMETERS


******************************************************************************




               X_X1.io_555     io_std          io_stm          
        DRVL  104             104               0            
        DRVH   96.4            96.4             0            
       AtoD1 atod_555        AtoD_STD                        
       AtoD2 atod_555        AtoD_STD_NX                     
       AtoD3 atod_555        AtoD_STD                        
       AtoD4 atod_555        AtoD_STD_NX                     
       DtoA1 dtoa_555        DtoA_STD        DtoA_STM        
       DtoA2 dtoa_555        DtoA_STD        DtoA_STM        
       DtoA3 dtoa_555        DtoA_STD        DtoA_STM        
       DtoA4 dtoa_555        DtoA_STD        DtoA_STM        
      TSWHL1                    1.511000E-09                 
      TSWHL2                    1.487000E-09                 
      TSWHL3                    1.511000E-09                 
      TSWHL4                    1.487000E-09                 
      TSWLH1                    3.517000E-09                 
      TSWLH2                    3.564000E-09                 
      TSWLH3                    3.517000E-09                 
      TSWLH4                    3.564000E-09                 
       TPWRT  100.000000E+03  100.000000E+03  100.000000E+03 


WARNING(ORPSIM-15202): X$X_X1.qb_DtoA1.n1 forced to X state for bias point

WARNING(ORPSIM-15202): X$X_X1.qb_DtoA1.n1 forced to X state for bias point

WARNING(ORPSIM-15202): X$X_X1.qb_DtoA1.n1 forced to X state for bias point

WARNING(ORPSIM-15202): X$X_X1.qb_DtoA1.n1 forced to X state for bias point

WARNING(ORPSIM-15658): Unable to converge all DtoA interface devices

**** 12/21/21 10:25:17 ******* PSpice Lite (March 2016) ******* ID# 10813 ****

 ** Profile: "SCHEMATIC1-tran1"  [ G:\030\12.21\12-21-1-pspicefiles\schematic1\tran1.sim ] 


 ****     INITIAL TRANSIENT SOLUTION       TEMPERATURE =   27.000 DEG C


******************************************************************************



 NODE   VOLTAGE     NODE   VOLTAGE     NODE   VOLTAGE     NODE   VOLTAGE


(  VCC)   10.0000  (N02040)     .2000 (N02168)     .2000 (N02200)    6.6667     

($G_DGND)    0.0000                   ($G_DPWR)    5.0000                       

(X_X1.qb)    5.0000                   (X_X1.botm)    3.3333                 



 DGTL NODE : STATE  DGTL NODE : STATE  DGTL NODE : STATE  DGTL NODE : STATE


(  X_X1.r) : 0     ( X_X1.sd) : 1     ( X_X1.rd) : 0     (X_X1.strt) : 0        

(  X_X1.s) : 1     ( X_X1.hi) : 1     (VCC$AtoD) : 1     (    VOUT) : 1         

(X_X1.qb$DtoA) : 0                    




    VOLTAGE SOURCE CURRENTS
    NAME         CURRENT

    V_V1        -3.482E-02
    X$DIGIFPWR.VDPWR  -5.000E-06
    X$DIGIFPWR.VDGND  -5.000E-06

    TOTAL POWER DISSIPATION   3.48E-01  WATTS



          JOB CONCLUDED

**** 12/21/21 10:25:17 ******* PSpice Lite (March 2016) ******* ID# 10813 ****

 ** Profile: "SCHEMATIC1-tran1"  [ G:\030\12.21\12-21-1-pspicefiles\schematic1\tran1.sim ] 


 ****     JOB STATISTICS SUMMARY


******************************************************************************



  Total job time (using Solver 1)   =        3.67
