
**** 11/23/21 11:58:22 ******* PSpice Lite (March 2016) ******* ID# 10813 ****

 ** Profile: "SCHEMATIC1-3"  [ G:\030\11.23\23-pspicefiles\schematic1\3.sim ] 


 ****     CIRCUIT DESCRIPTION


******************************************************************************




** Creating circuit file "3.cir" 
** WARNING: THIS AUTOMATICALLY GENERATED FILE MAY BE OVERWRITTEN BY SUBSEQUENT SIMULATIONS

*Libraries: 
* Profile Libraries :
* Local Libraries :
.LIB "../../../ad627a/ad627a.lib" 
* From [PSPICE NETLIST] section of C:\SPB_Data\cdssetup\OrCAD_PSpice\17.2.0\PSpice.ini file:
.lib "G:\030\11.23\AD627A\AD627A.lib" 
.lib "nomd.lib" 

*Analysis directives: 
.AC DEC 1 0.1 100k
.OPTIONS ADVCONV
.PROBE64 V(alias(*)) I(alias(*)) W(alias(*)) D(alias(*)) NOISE(alias(*)) 
.INC "..\SCHEMATIC1.net" 



**** INCLUDING SCHEMATIC1.net ****
* source 23
X_U1         IN 0 OUT 0 N01913 N02009 +VS -VS AD627A
V_V1         +VS 0 +12
V_V2         -VS 0 -12
R_R1         N02009 N01913  40.2k TC=0,0 
C_C1         +VS 0  0.1u  TC=0,0 
C_C2         -VS 0  0.1u  TC=0,0 
V_V3         IN 0  AC 1
+SIN 0 100m 1k 0 0 0

**** RESUMING 3.cir ****
.END

**** 11/23/21 11:58:22 ******* PSpice Lite (March 2016) ******* ID# 10813 ****

 ** Profile: "SCHEMATIC1-3"  [ G:\030\11.23\23-pspicefiles\schematic1\3.sim ] 


 ****     Diode MODEL PARAMETERS


******************************************************************************




               X_U1.DX         X_U1.X_U1.DX    X_U1.X_U2.DX    
          IS   10.000000E-15   10.000000E-15   10.000000E-15 


**** 11/23/21 11:58:22 ******* PSpice Lite (March 2016) ******* ID# 10813 ****

 ** Profile: "SCHEMATIC1-3"  [ G:\030\11.23\23-pspicefiles\schematic1\3.sim ] 


 ****     BJT MODEL PARAMETERS


******************************************************************************




               X_U1.QPI        X_U1.X_U1.QPI   X_U1.X_U2.QPI   
               PNP             PNP             PNP             
       LEVEL    1               1               1            
          IS  100.000000E-18  100.000000E-18  100.000000E-18 
          BF  100             100             100            
          NF    1               1               1            
          BR    1               1               1            
          NR    1               1               1            
         ISS    0               0               0            
          RE    0               0               0            
          RC    0               0               0            
         CJE    0               0               0            
         VJE     .75             .75             .75         
         CJC    0               0               0            
         VJC     .75             .75             .75         
         MJC     .33             .33             .33         
        XCJC    1               1               1            
         CJS    0               0               0            
         VJS     .75             .75             .75         
          KF    0               0               0            
          AF    1               1               1            
          CN    2.2             2.2             2.2          
           D     .52             .52             .52         


**** 11/23/21 11:58:22 ******* PSpice Lite (March 2016) ******* ID# 10813 ****

 ** Profile: "SCHEMATIC1-3"  [ G:\030\11.23\23-pspicefiles\schematic1\3.sim ] 


 ****     SMALL SIGNAL BIAS SOLUTION       TEMPERATURE =   27.000 DEG C


******************************************************************************



 NODE   VOLTAGE     NODE   VOLTAGE     NODE   VOLTAGE     NODE   VOLTAGE


(   IN)    0.0000  (  +VS)   12.0000  (  -VS)  -12.0000  (  OUT)     .0030      

(N01913)     .5774 (N02009)     .5771 (X_U1.3)  -11.9000 (X_U1.4) 9.777E-06     

(X_U1.6)  -11.9000 (X_U1.7) 257.8E-06 (X_U1.8) 250.0E-06 (X_U1.9)     .7336     

(X_U1.10)  -11.9000                   (X_U1.11)     .0020                       

(X_U1.X_U1.2)    0.0000               (X_U1.X_U1.3)    0.0000                   

(X_U1.X_U1.4)  -11.3050               (X_U1.X_U1.5)  -11.9000                   

(X_U1.X_U1.6)  -11.9000               (X_U1.X_U1.7)-11.90E-09                   

(X_U1.X_U1.8)  -11.9010               (X_U1.X_U1.9)  -11.9010                   

(X_U1.X_U2.2)    0.0000               (X_U1.X_U2.3)    0.0000                   

(X_U1.X_U2.4)  -11.3050               (X_U1.X_U2.5)  -11.9000                   

(X_U1.X_U2.6)  -11.9000               (X_U1.X_U2.7)-11.90E-09                   

(X_U1.X_U2.8)  -11.9010               (X_U1.X_U2.9)  -11.9010                   

(X_U1.X_U1.10)  -11.2000              (X_U1.X_U1.11)   11.2000                  

(X_U1.X_U1.12)     .0011              (X_U1.X_U1.13)     .0011                  

(X_U1.X_U1.14)  -11.3750              (X_U1.X_U1.15)   11.3300                  

(X_U1.X_U1.20)   11.3300              (X_U1.X_U1.21)  -11.3750                  

(X_U1.X_U1.98)    0.0000              (X_U1.X_U2.10)  -11.2000                  

(X_U1.X_U2.11)   11.2000              (X_U1.X_U2.12)-286.1E-06                  

(X_U1.X_U2.13)-286.1E-06              (X_U1.X_U2.14)  -11.3750                  

(X_U1.X_U2.15)   11.3300              (X_U1.X_U2.20)   11.3300                  

(X_U1.X_U2.21)  -11.3750              (X_U1.X_U2.98)    0.0000              




    VOLTAGE SOURCE CURRENTS
    NAME         CURRENT

    V_V1        -2.724E-04
    V_V2         2.666E-04
    V_V3         3.889E-09
    X_U1.V4      0.000E+00
    X_U1.V5      3.889E-09
    X_U1.V1      1.980E-08
    X_U1.X_U1.V1   1.134E-11
    X_U1.X_U1.V2   1.139E-11
    X_U1.X_U1.V5   1.061E-11
    X_U1.X_U1.V6   1.212E-11
    X_U1.X_U1.V7   1.121E-11
    X_U1.X_U1.V8   1.121E-11
    X_U1.X_U2.V1   1.134E-11
    X_U1.X_U2.V2   1.138E-11
    X_U1.X_U2.V5   1.134E-11
    X_U1.X_U2.V6   1.139E-11
    X_U1.X_U2.V7   1.121E-11
    X_U1.X_U2.V8   1.121E-11

    TOTAL POWER DISSIPATION   6.47E-03  WATTS



          JOB CONCLUDED

**** 11/23/21 11:58:22 ******* PSpice Lite (March 2016) ******* ID# 10813 ****

 ** Profile: "SCHEMATIC1-3"  [ G:\030\11.23\23-pspicefiles\schematic1\3.sim ] 


 ****     JOB STATISTICS SUMMARY


******************************************************************************



  Total job time (using Solver 1)   =         .02
