
**** 11/08/21 22:12:02 ******* PSpice Lite (March 2016) ******* ID# 10813 ****

 ** Profile: "SCHEMATIC1-1"  [ D:\Software\Capture_PSpice\Project\Monte Carlo analysis\monte carlo analysis-pspicefiles\schematic1\1.


 ****     CIRCUIT DESCRIPTION


******************************************************************************




** Creating circuit file "1.cir" 
** WARNING: THIS AUTOMATICALLY GENERATED FILE MAY BE OVERWRITTEN BY SUBSEQUENT SIMULATIONS

*Libraries: 
* Profile Libraries :
* Local Libraries :
* From [PSPICE NETLIST] section of C:\SPB_Data\cdssetup\OrCAD_PSpice\17.2.0\PSpice.ini file:
.lib "nomd.lib" 

*Analysis directives: 
.AC DEC 100 0.1 10K
.OPTIONS ADVCONV
.PROBE64 V(alias(*)) I(alias(*)) W(alias(*)) D(alias(*)) NOISE(alias(*)) 
.INC "..\SCHEMATIC1.net" 



**** INCLUDING SCHEMATIC1.net ****
* source MONTE CARLO ANALYSIS
V_V2         +12V 0 12Vdc
V_V3         -12V 0 -12Vdc
X_U1         N00283 N00287 +12V -12V N00304 uA741
R_R1         0 N00287  1k TC=0,0 
R_R4         N00279 N00283  1k TC=0,0 
R_R3         N00272 N00279  1k TC=0,0 
R_R2         N00287 N00304  1k TC=0,0 
C_C2         0 N00283  1u  TC=0,0 
C_C1         N00304 N00279  1u  TC=0,0 
V_V1         0 N00272 DC 0Vdc AC 1Vac 

**** RESUMING 1.cir ****
.END

**** 11/08/21 22:12:02 ******* PSpice Lite (March 2016) ******* ID# 10813 ****

 ** Profile: "SCHEMATIC1-1"  [ D:\Software\Capture_PSpice\Project\Monte Carlo analysis\monte carlo analysis-pspicefiles\schematic1\1.


 ****     Diode MODEL PARAMETERS


******************************************************************************




               X_U1.dx         X_U1.dy         
          IS  800.000000E-18  800.000000E-18 
          RS    1               1.000000E-03 
         CJO                   10.000000E-12 


**** 11/08/21 22:12:02 ******* PSpice Lite (March 2016) ******* ID# 10813 ****

 ** Profile: "SCHEMATIC1-1"  [ D:\Software\Capture_PSpice\Project\Monte Carlo analysis\monte carlo analysis-pspicefiles\schematic1\1.


 ****     BJT MODEL PARAMETERS


******************************************************************************




               X_U1.qx         
               NPN             
       LEVEL    1            
          IS  800.000000E-18 
          BF   93.75         
          NF    1            
          BR    1            
          NR    1            
         ISS    0            
          RE    0            
          RC    0            
         CJE    0            
         VJE     .75         
         CJC    0            
         VJC     .75         
         MJC     .33         
        XCJC    1            
         CJS    0            
         VJS     .75         
          KF    0            
          AF    1            
          CN    2.42         
           D     .87         


**** 11/08/21 22:12:02 ******* PSpice Lite (March 2016) ******* ID# 10813 ****

 ** Profile: "SCHEMATIC1-1"  [ D:\Software\Capture_PSpice\Project\Monte Carlo analysis\monte carlo analysis-pspicefiles\schematic1\1.


 ****     SMALL SIGNAL BIAS SOLUTION       TEMPERATURE =   27.000 DEG C


******************************************************************************



 NODE   VOLTAGE     NODE   VOLTAGE     NODE   VOLTAGE     NODE   VOLTAGE


( +12V)   12.0000  ( -12V)  -12.0000  (N00272)    0.0000 (N00279)-79.73E-06     

(N00283)-159.5E-06 (N00287)-140.2E-06 (N00304)-200.6E-06 (X_U1.6) 19.43E-09     

(X_U1.7)-203.6E-06 (X_U1.8)-203.6E-06 (X_U1.9)    0.0000 (X_U1.10)    -.6078    

(X_U1.11)   11.9600                   (X_U1.12)   11.9600                       

(X_U1.13)    -.5939                   (X_U1.14)    -.5940                       

(X_U1.53)   11.0000                   (X_U1.54)  -11.0000                       

(X_U1.90)-60.43E-06                   (X_U1.91)   40.0000                       

(X_U1.92)  -40.0000                   (X_U1.99)    0.0000                   




    VOLTAGE SOURCE CURRENTS
    NAME         CURRENT

    V_V2        -1.337E-03
    V_V3         1.337E-03
    V_V1         7.973E-08
    X_U1.vb      1.943E-13
    X_U1.vc      1.100E-11
    X_U1.ve      1.251E-11
    X_U1.vlim   -6.043E-08
    X_U1.vlp    -4.000E-11
    X_U1.vln    -4.000E-11

    TOTAL POWER DISSIPATION   3.21E-02  WATTS



          JOB CONCLUDED

**** 11/08/21 22:12:02 ******* PSpice Lite (March 2016) ******* ID# 10813 ****

 ** Profile: "SCHEMATIC1-1"  [ D:\Software\Capture_PSpice\Project\Monte Carlo analysis\monte carlo analysis-pspicefiles\schematic1\1.


 ****     JOB STATISTICS SUMMARY


******************************************************************************



  Total job time (using Solver 1)   =         .06
