
**** 12/10/21 17:27:13 ******* PSpice Lite (March 2016) ******* ID# 10813 ****

 ** Profile: "SCHEMATIC1-page_tran"  [ D:\Software\Capture_PSpice\Project\Electronic circuit design - 副本\exam_1-pspicefiles\schemat


 ****     CIRCUIT DESCRIPTION


******************************************************************************




** Creating circuit file "page_tran.cir" 
** WARNING: THIS AUTOMATICALLY GENERATED FILE MAY BE OVERWRITTEN BY SUBSEQUENT SIMULATIONS

*Libraries: 
* Profile Libraries :
* Local Libraries :
* From [PSPICE NETLIST] section of C:\SPB_Data\cdssetup\OrCAD_PSpice\17.2.0\PSpice.ini file:
.lib "nomd.lib" 

*Analysis directives: 
.TRAN  0 15m 6m 0.01m 
.OPTIONS ADVCONV
.PROBE64 V(alias(*)) I(alias(*)) W(alias(*)) D(alias(*)) NOISE(alias(*)) 
.INC "..\SCHEMATIC1.net" 



**** INCLUDING SCHEMATIC1.net ****
* source EXAM_1
X_U1A         N00243 N00334 VCC 0 OUT3 LM324
R_R1         N00243 OUT3  20k TC=0,0 
R_R2         N00247 N00243  10k TC=0,0 
R_R3         N00247 VCC  50k TC=0,0 
R_R4         0 N00247  51k TC=0,0 
R_R5         OUT3 N00334  10k TC=0,0 
C_C1         0 N00247  10u  TC=0,0 
C_C2         0 N00334  1n  TC=0,0 
V_V1         VCC 0 12Vdc
C_C6         OUT3 N015911  10u  TC=0,0 
C_C7         0 N01899  1n  TC=0,0 
C_C8         0 OUT1  1n  TC=0,0 
R_R8         N015911 N01899  800 TC=0,0 
R_R9         N01899 OUT1  1k TC=0,0 
X_U1B         N03409 N03517 VCC 0 N03600 LM324
R_R10         N03418 N03409  10k TC=0,0 
R_R11         N03418 N03409  1k TC=0,0 
R_R12         N03418 VCC  300k TC=0,0 
R_R13         0 N03418  100k TC=0,0 
R_R14         N03517 N03521  10k TC=0,0 
R_R15         N03517 N03542  1k TC=0,0 
C_C9         OUT1 N03521  10u  TC=0,0 
C_C10         UI1 N03542  10u  TC=0,0 
C_C11         0 N03418  10u  TC=0,0 
C_C12         N03600 OUT2  10u  TC=0,0 
R_R16         N03517 N03600  10k TC=0,0 
V_V2         UI1 0  
+SIN 0 0.1 500 0 0 0
R_R17         OUT2 0  1k TC=0,0 
R_R18         OUT1 0  1k TC=0,0 

**** RESUMING page_tran.cir ****
.END

**** 12/10/21 17:27:13 ******* PSpice Lite (March 2016) ******* ID# 10813 ****

 ** Profile: "SCHEMATIC1-page_tran"  [ D:\Software\Capture_PSpice\Project\Electronic circuit design - 副本\exam_1-pspicefiles\schemat


 ****     Diode MODEL PARAMETERS


******************************************************************************




               X_U1A.dx        X_U1A.dy        X_U1B.dx        X_U1B.dy        
          IS  800.000000E-18  800.000000E-18  800.000000E-18  800.000000E-18 
          RS    1               1.000000E-03    1               1.000000E-03 
         CJO                   10.000000E-12                   10.000000E-12 


**** 12/10/21 17:27:13 ******* PSpice Lite (March 2016) ******* ID# 10813 ****

 ** Profile: "SCHEMATIC1-page_tran"  [ D:\Software\Capture_PSpice\Project\Electronic circuit design - 副本\exam_1-pspicefiles\schemat


 ****     BJT MODEL PARAMETERS


******************************************************************************




               X_U1A.qx        X_U1B.qx        
               PNP             PNP             
       LEVEL    1               1            
          IS  800.000000E-18  800.000000E-18 
          BF  166.7           166.7          
          NF    1               1            
          BR    1               1            
          NR    1               1            
         ISS    0               0            
          RE    0               0            
          RC    0               0            
         CJE    0               0            
         VJE     .75             .75         
         CJC    0               0            
         VJC     .75             .75         
         MJC     .33             .33         
        XCJC    1               1            
         CJS    0               0            
         VJS     .75             .75         
          KF    0               0            
          AF    1               1            
          CN    2.2             2.2          
           D     .52             .52         


**** 12/10/21 17:27:13 ******* PSpice Lite (March 2016) ******* ID# 10813 ****

 ** Profile: "SCHEMATIC1-page_tran"  [ D:\Software\Capture_PSpice\Project\Electronic circuit design - 副本\exam_1-pspicefiles\schemat


 ****     Current Controlled Switch MODEL PARAMETERS


******************************************************************************




               X_U1A.sw2       X_U1A.sw1       X_U1A.sw3       X_U1A.sw4       
         RON    1               1               1               1            
        ROFF   10.000000E+06   10.000000E+06   10.000000E+06   10.000000E+06 
         ION    0              -1.000000E-06   -1.000000E-06    0            
        IOFF   -1.000000E-06    0               0              -1.000000E-06 


               X_U1B.sw2       X_U1B.sw1       X_U1B.sw3       X_U1B.sw4       
         RON    1               1               1               1            
        ROFF   10.000000E+06   10.000000E+06   10.000000E+06   10.000000E+06 
         ION    0              -1.000000E-06   -1.000000E-06    0            
        IOFF   -1.000000E-06    0               0              -1.000000E-06 


**** 12/10/21 17:27:13 ******* PSpice Lite (March 2016) ******* ID# 10813 ****

 ** Profile: "SCHEMATIC1-page_tran"  [ D:\Software\Capture_PSpice\Project\Electronic circuit design - 副本\exam_1-pspicefiles\schemat


 ****     INITIAL TRANSIENT SOLUTION       TEMPERATURE =   27.000 DEG C


******************************************************************************



 NODE   VOLTAGE     NODE   VOLTAGE     NODE   VOLTAGE     NODE   VOLTAGE


(  UI1)    0.0000  (  VCC)   12.0000  ( OUT1)    0.0000  ( OUT2)    0.0000      

( OUT3)    6.0592  (N00243)    6.0598 (N00247)    6.0597 (N00334)    6.0596     

(N01899)    0.0000 (N03409)    3.0035 (N03418)    3.0034 (N03517)    3.0043     

(N03521)    3.0043 (N03542)    3.0043 (N03600)    3.0038 (N015911)    0.0000    

(X_U1A.6)-11.15E-06                   (X_U1A.7)    6.0592                       

(X_U1A.8)    6.0592                   (X_U1A.9)    0.0000                       

(X_U1A.a)   12.0000                   (X_U1A.b) 103.2E-09                       

(X_U1B.6) 564.8E-06                   (X_U1B.7)    3.0038                       

(X_U1B.8)    3.0038                   (X_U1B.9)    0.0000                       

(X_U1B.a)   12.0000                   (X_U1B.b) 49.60E-09                       

(X_U1A.10)    6.6674                  (X_U1A.11)     .0398                      

(X_U1A.12)     .0395                  (X_U1A.13)    6.6535                      

(X_U1A.14)    6.6535                  (X_U1A.53)   10.5000                      

(X_U1A.54)     .8220                  (X_U1A.90)-78.03E-06                      

(X_U1A.91)   40.0000                  (X_U1A.92)  -40.0000                      

(X_U1A.99)    6.0000                  (X_U1B.10)    3.6121                      

(X_U1B.11)     .0399                  (X_U1B.12)     .0407                      

(X_U1B.13)    3.5982                  (X_U1B.14)    3.5979                      

(X_U1B.53)   10.5000                  (X_U1B.54)     .8220                      

(X_U1B.90)-45.09E-06                  (X_U1B.91)   40.0000                      

(X_U1B.92)  -40.0000                  (X_U1B.99)    6.0000                  




    VOLTAGE SOURCE CURRENTS
    NAME         CURRENT

    V_V1        -2.824E-03
    V_V2         0.000E+00
    X_U1A.vb    -1.115E-10
    X_U1A.vc     4.442E-12
    X_U1A.ve     5.125E-12
    X_U1A.vlim  -7.803E-08
    X_U1A.vlp   -4.000E-11
    X_U1A.vln   -4.000E-11
    X_U1B.vb     5.648E-09
    X_U1B.vc     7.497E-12
    X_U1B.ve     2.070E-12
    X_U1B.vlim  -4.509E-08
    X_U1B.vlp   -4.000E-11
    X_U1B.vln   -4.000E-11

    TOTAL POWER DISSIPATION   3.39E-02  WATTS



          JOB CONCLUDED

**** 12/10/21 17:27:13 ******* PSpice Lite (March 2016) ******* ID# 10813 ****

 ** Profile: "SCHEMATIC1-page_tran"  [ D:\Software\Capture_PSpice\Project\Electronic circuit design - 副本\exam_1-pspicefiles\schemat


 ****     JOB STATISTICS SUMMARY


******************************************************************************



  Total job time (using Solver 1)   =        2.30
