
**** 11/23/21 11:42:15 ******* PSpice Lite (March 2016) ******* ID# 10813 ****

 ** Profile: "SCHEMATIC2-2"  [ G:\030\11.23\23-PSpiceFiles\SCHEMATIC2\2.sim ] 


 ****     CIRCUIT DESCRIPTION


******************************************************************************




** Creating circuit file "2.cir" 
** WARNING: THIS AUTOMATICALLY GENERATED FILE MAY BE OVERWRITTEN BY SUBSEQUENT SIMULATIONS

*Libraries: 
* Profile Libraries :
* Local Libraries :
.LIB "../../../ad627a/ad627a.lib" 
* From [PSPICE NETLIST] section of C:\SPB_Data\cdssetup\OrCAD_PSpice\17.2.0\PSpice.ini file:
.lib "G:\030\11.23\AD627A\AD627A.lib" 
.lib "nomd.lib" 

*Analysis directives: 
.TRAN  0 100m 0 
.OPTIONS ADVCONV
.PROBE64 V(alias(*)) I(alias(*)) W(alias(*)) D(alias(*)) NOISE(alias(*)) 
.INC "..\SCHEMATIC2.net" 



**** INCLUDING SCHEMATIC2.net ****
* source 23
V_V1         +VS 0 +12
V_V2         -VS 0 -12
R_R1         N01907 N01811  40.2k TC=0,0 
C_C1         +VS 0  0.1u  TC=0,0 
C_C2         -VS 0  0.1u  TC=0,0 
X_U1         IN N01911 OUT 0 N01811 N01907 +VS -VS AD627A
V_V3         IN N01911  
+SIN 0 100m 10k 0 0 0

**** RESUMING 2.cir ****
.END

**** 11/23/21 11:42:15 ******* PSpice Lite (March 2016) ******* ID# 10813 ****

 ** Profile: "SCHEMATIC2-2"  [ G:\030\11.23\23-PSpiceFiles\SCHEMATIC2\2.sim ] 


 ****     Diode MODEL PARAMETERS


******************************************************************************




               X_U1.DX         X_U1.X_U1.DX    X_U1.X_U2.DX    
          IS   10.000000E-15   10.000000E-15   10.000000E-15 


**** 11/23/21 11:42:15 ******* PSpice Lite (March 2016) ******* ID# 10813 ****

 ** Profile: "SCHEMATIC2-2"  [ G:\030\11.23\23-PSpiceFiles\SCHEMATIC2\2.sim ] 


 ****     BJT MODEL PARAMETERS


******************************************************************************




               X_U1.QPI        X_U1.X_U1.QPI   X_U1.X_U2.QPI   
               PNP             PNP             PNP             
       LEVEL    1               1               1            
          IS  100.000000E-18  100.000000E-18  100.000000E-18 
          BF  100             100             100            
          NF    1               1               1            
          BR    1               1               1            
          NR    1               1               1            
         ISS    0               0               0            
          RE    0               0               0            
          RC    0               0               0            
         CJE    0               0               0            
         VJE     .75             .75             .75         
         CJC    0               0               0            
         VJC     .75             .75             .75         
         MJC     .33             .33             .33         
        XCJC    1               1               1            
         CJS    0               0               0            
         VJS     .75             .75             .75         
          KF    0               0               0            
          AF    1               1               1            
          CN    2.2             2.2             2.2          
           D     .52             .52             .52         


**** 11/23/21 11:42:15 ******* PSpice Lite (March 2016) ******* ID# 10813 ****

 ** Profile: "SCHEMATIC2-2"  [ G:\030\11.23\23-PSpiceFiles\SCHEMATIC2\2.sim ] 


 ****     INITIAL TRANSIENT SOLUTION       TEMPERATURE =   27.000 DEG C


******************************************************************************



 NODE   VOLTAGE     NODE   VOLTAGE     NODE   VOLTAGE     NODE   VOLTAGE


(   IN)   11.0480  (  +VS)   12.0000  (  -VS)  -12.0000  (  OUT)   12.1280      

(N01811)   11.5220 (N01907)   10.3060 (N01911)   11.0480 (X_U1.3)  -11.9940     

(X_U1.4)   11.0480 (X_U1.6)  -11.9920 (X_U1.7)   11.0480 (X_U1.8)   11.0480     

(X_U1.9)   12.1270 (X_U1.10)  -11.9000                   (X_U1.11)   12.1270    

(X_U1.X_U1.2)    0.0000               (X_U1.X_U1.3)    0.0000                   

(X_U1.X_U1.4)  -11.3820               (X_U1.X_U1.5)  -11.9940                   

(X_U1.X_U1.6)  -11.9470               (X_U1.X_U1.7)-11.95E-09                   

(X_U1.X_U1.8)  -11.8070               (X_U1.X_U1.9)  -11.9950                   

(X_U1.X_U2.2)    0.0000               (X_U1.X_U2.3)    0.0000                   

(X_U1.X_U2.4)  -11.3800               (X_U1.X_U2.5)  -11.9920                   

(X_U1.X_U2.6)  -11.9460               (X_U1.X_U2.7)-11.95E-09                   

(X_U1.X_U2.8)  -11.8070               (X_U1.X_U2.9)  -11.9950                   

(X_U1.X_U1.10)  -11.2000              (X_U1.X_U1.11)   11.2000                  

(X_U1.X_U1.12) 18.79E+03              (X_U1.X_U1.13)   12.0610                  

(X_U1.X_U1.14)  -11.3750              (X_U1.X_U1.15)   11.3300                  

(X_U1.X_U1.20)   11.3300              (X_U1.X_U1.21)  -11.3750                  

(X_U1.X_U1.98)    0.0000              (X_U1.X_U2.10)  -11.2000                  

(X_U1.X_U2.11)   11.2000              (X_U1.X_U2.12) 18.72E+03                  

(X_U1.X_U2.13)   12.0610              (X_U1.X_U2.14)  -11.3750                  

(X_U1.X_U2.15)   11.3300              (X_U1.X_U2.20)   11.3300                  

(X_U1.X_U2.21)  -11.3750              (X_U1.X_U2.98)    0.0000              




    VOLTAGE SOURCE CURRENTS
    NAME         CURRENT

    V_V1         5.194E-01
    V_V2        -5.195E-01
    V_V3        -9.549E-10
    X_U1.V4      0.000E+00
    X_U1.V5     -9.549E-10
    X_U1.V1     -1.763E-08
    X_U1.X_U1.V1  -1.878E-02
    X_U1.X_U1.V2   2.345E-11
    X_U1.X_U1.V5  -2.410E-01
    X_U1.X_U1.V6   2.351E-11
    X_U1.X_U1.V7   1.121E-11
    X_U1.X_U1.V8   1.121E-11
    X_U1.X_U2.V1  -1.871E-02
    X_U1.X_U2.V2   2.345E-11
    X_U1.X_U2.V5  -2.411E-01
    X_U1.X_U2.V6   2.351E-11
    X_U1.X_U2.V7   1.121E-11
    X_U1.X_U2.V8   1.121E-11

    TOTAL POWER DISSIPATION  -1.21E+01  WATTS



          JOB CONCLUDED

**** 11/23/21 11:42:15 ******* PSpice Lite (March 2016) ******* ID# 10813 ****

 ** Profile: "SCHEMATIC2-2"  [ G:\030\11.23\23-PSpiceFiles\SCHEMATIC2\2.sim ] 


 ****     JOB STATISTICS SUMMARY


******************************************************************************



  Total job time (using Solver 1)   =         .39
