
**** 10/11/21 10:51:27 ******* PSpice Lite (March 2016) ******* ID# 10813 ****

 ** Profile: "SCHEMATIC1-007"  [ D:\Software\Capture_PSpice\Project\Static operating point analysis circuit\Static operating point an


 ****     CIRCUIT DESCRIPTION


******************************************************************************




** Creating circuit file "007.cir" 
** WARNING: THIS AUTOMATICALLY GENERATED FILE MAY BE OVERWRITTEN BY SUBSEQUENT SIMULATIONS

*Libraries: 
* Profile Libraries :
* Local Libraries :
* From [PSPICE NETLIST] section of C:\SPB_Data\cdssetup\OrCAD_PSpice\17.2.0\PSpice.ini file:
.lib "nomd.lib" 

*Analysis directives: 
.OP
.OPTIONS ADVCONV
.OPTIONS ITL2= 200
.OPTIONS ITL4= 100
.PROBE64 V(alias(*)) I(alias(*)) W(alias(*)) D(alias(*)) NOISE(alias(*)) 
.INC "..\SCHEMATIC1.net" 



**** INCLUDING SCHEMATIC1.net ****
* source STATIC OPERATING POINT ANALYSIS CIRCUIT
V_V1         N00156 0 10Vdc
R_R1         N00156 N00163  1k TC=0,0 
R_R2         0 N00163  1k TC=0,0 
R_R3         N00167 N00163  1k TC=0,0 
C_C1         0 N00167  1p  TC=0,0 

**** RESUMING 007.cir ****
.END

**** 10/11/21 10:51:27 ******* PSpice Lite (March 2016) ******* ID# 10813 ****

 ** Profile: "SCHEMATIC1-007"  [ D:\Software\Capture_PSpice\Project\Static operating point analysis circuit\Static operating point an


 ****     SMALL SIGNAL BIAS SOLUTION       TEMPERATURE =   27.000 DEG C


******************************************************************************



 NODE   VOLTAGE     NODE   VOLTAGE     NODE   VOLTAGE     NODE   VOLTAGE


(N00156)   10.0000 (N00163)    5.0000 (N00167)    5.0000 




    VOLTAGE SOURCE CURRENTS
    NAME         CURRENT

    V_V1        -5.000E-03

    TOTAL POWER DISSIPATION   5.00E-02  WATTS


**** 10/11/21 10:51:27 ******* PSpice Lite (March 2016) ******* ID# 10813 ****

 ** Profile: "SCHEMATIC1-007"  [ D:\Software\Capture_PSpice\Project\Static operating point analysis circuit\Static operating point an


 ****     OPERATING POINT INFORMATION      TEMPERATURE =   27.000 DEG C


******************************************************************************





          JOB CONCLUDED

**** 10/11/21 10:51:27 ******* PSpice Lite (March 2016) ******* ID# 10813 ****

 ** Profile: "SCHEMATIC1-007"  [ D:\Software\Capture_PSpice\Project\Static operating point analysis circuit\Static operating point an


 ****     JOB STATISTICS SUMMARY


******************************************************************************



  Total job time (using Solver 1)   =        0.00
